T2CF4 000:008.685   SEGGER J-Link V6.70e Log File
T2CF4 000:008.835   DLL Compiled: Apr 17 2020 17:55:05
T2CF4 000:008.842   Logging started @ 2021-08-21 14:09
T2CF4 000:008.853 JLINK_SetWarnOutHandler(...)
T2CF4 000:008.861 - 0.011ms
T2CF4 000:008.873 JLINK_OpenEx(...)
T2CF4 000:010.505   Firmware: J-Link V9 compiled Dec 13 2019 11:14:50
T2CF4 000:010.699   Decompressing FW timestamp took 144 us
T2CF4 000:016.774   Hardware: V9.70
T2CF4 000:016.811   S/N: 59700618
T2CF4 000:016.820   OEM: SEGGER
T2CF4 000:016.829   Feature(s): RDI, FlashBP, FlashDL, JFlash, GDB
T2CF4 000:017.770   TELNET listener socket opened on port 19021
T2CF4 000:018.011   WEBSRV Starting webserver
T2CF4 000:018.165   WEBSRV Webserver running on local port 19080
T2CF4 000:018.185 - 9.317ms returns "O.K."
T2CF4 000:018.225 JLINK_GetEmuCaps()
T2CF4 000:018.235 - 0.017ms returns 0xB9FF7BBF
T2CF4 000:018.253 JLINK_TIF_GetAvailable(...)
T2CF4 000:018.418 - 0.173ms
T2CF4 000:018.439 JLINK_SetErrorOutHandler(...)
T2CF4 000:018.446 - 0.010ms
T2CF4 000:018.477 JLINK_ExecCommand("ProjectFile = "C:\Users\Stone\Desktop\STM32 code\01_Stand Temp\Project\JLinkSettings.ini"", ...). 
T2CF4 000:029.295 - 10.844ms returns 0x00
T2CF4 000:037.061 JLINK_ExecCommand("Device = STM32F103ZE", ...). 
T2CF4 000:039.336   Device "STM32F103ZE" selected.
T2CF4 000:039.911 - 2.822ms returns 0x00
T2CF4 000:039.928 JLINK_ExecCommand("DisableConnectionTimeout", ...). 
T2CF4 000:039.940 - 0.006ms returns 0x01
T2CF4 000:039.949 JLINK_GetHardwareVersion()
T2CF4 000:039.955 - 0.009ms returns 0x17AE8
T2CF4 000:039.963 JLINK_GetDLLVersion()  returns 67005
T2CF4 000:039.978 JLINK_GetFirmwareString(...)
T2CF4 000:039.984 - 0.009ms
T2CF4 000:044.621 JLINK_GetDLLVersion()  returns 67005
T2CF4 000:044.642 JLINK_GetCompileDateTime()
T2CF4 000:044.649 - 0.009ms
T2CF4 000:045.980 JLINK_GetFirmwareString(...)
T2CF4 000:045.997 - 0.020ms
T2CF4 000:047.313 JLINK_GetHardwareVersion()
T2CF4 000:047.327 - 0.017ms returns 0x17AE8
T2CF4 000:053.091 JLINK_TIF_Select(JLINKARM_TIF_JTAG)
T2CF4 000:053.866 - 0.785ms returns 0x00
T2CF4 000:053.903 JLINK_SetSpeed(10000)
T2CF4 000:053.965 - 0.070ms
T2CF4 000:053.981 JLINK_GetIdData(pIdData)
T2CF4 000:057.463   TotalIRLen = 9, IRPrint = 0x0011
T2CF4 000:059.222   JTAG chain detection found 2 devices:
T2CF4 000:060.805    #0 Id: 0x3BA00477, IRLen: 04, CoreSight JTAG-DP
T2CF4 000:062.561    #1 Id: 0x06414041, IRLen: 05, STM32 Boundary Scan
T2CF4 000:068.805   TotalIRLen = 9, IRPrint = 0x0011
T2CF4 000:070.446   JTAG chain detection found 2 devices:
T2CF4 000:071.872    #0 Id: 0x3BA00477, IRLen: 04, CoreSight JTAG-DP
T2CF4 000:073.374    #1 Id: 0x06414041, IRLen: 05, STM32 Boundary Scan
T2CF4 000:074.280   Old FW that does not support reading DPIDR via DAP jobs
T2CF4 000:076.256   Unknown DP version. Assuming DPv0
T2CF4 000:077.792   Scanning AP map to find all available APs
T2CF4 000:079.910   AP[1]: Stopped AP scan as end of AP map has been reached
T2CF4 000:081.782   AP[0]: AHB-AP (IDR: 0x14770011)
T2CF4 000:084.554   Iterating through AP map to find AHB-AP to use
T2CF4 000:086.891   AP[0]: Core found
T2CF4 000:088.381   AP[0]: AHB-AP ROM base: 0xE00FF000
T2CF4 000:089.997   CPUID register: 0x411FC231. Implementer code: 0x41 (ARM)
T2CF4 000:091.517   Found Cortex-M3 r1p1, Little endian.
T2CF4 000:091.819    -- Max. mem block: 0x00010DD0
T2CF4 000:091.849   CPU_ReadMem(4 bytes @ 0xE000EDF0)
T2CF4 000:092.963   CPU_WriteMem(4 bytes @ 0xE000EDF0)
T2CF4 000:093.193   CPU_ReadMem(4 bytes @ 0xE0002000)
T2CF4 000:095.041   FPUnit: 6 code (BP) slots and 2 literal slots
T2CF4 000:095.059   CPU_ReadMem(4 bytes @ 0xE000EDFC)
T2CF4 000:095.292   CPU_WriteMem(4 bytes @ 0xE000EDFC)
T2CF4 000:095.510   CPU_ReadMem(4 bytes @ 0xE0001000)
T2CF4 000:095.808   CPU_WriteMem(4 bytes @ 0xE0001000)
T2CF4 000:096.073   CPU_ReadMem(4 bytes @ 0xE000ED88)
T2CF4 000:096.363   CPU_WriteMem(4 bytes @ 0xE000ED88)
T2CF4 000:096.580   CPU_ReadMem(4 bytes @ 0xE000ED88)
T2CF4 000:096.783   CPU_WriteMem(4 bytes @ 0xE000ED88)
T2CF4 000:098.506   CoreSight components:
T2CF4 000:100.179   ROMTbl[0] @ E00FF000
T2CF4 000:100.198   CPU_ReadMem(64 bytes @ 0xE00FF000)
T2CF4 000:100.605   CPU_ReadMem(32 bytes @ 0xE000EFE0)
T2CF4 000:102.529   ROMTbl[0][0]: E000E000, CID: B105E00D, PID: 001BB000 SCS
T2CF4 000:102.550   CPU_ReadMem(32 bytes @ 0xE0001FE0)
T2CF4 000:104.313   ROMTbl[0][1]: E0001000, CID: B105E00D, PID: 001BB002 DWT
T2CF4 000:104.332   CPU_ReadMem(32 bytes @ 0xE0002FE0)
T2CF4 000:106.291   ROMTbl[0][2]: E0002000, CID: B105E00D, PID: 000BB003 FPB
T2CF4 000:106.310   CPU_ReadMem(32 bytes @ 0xE0000FE0)
T2CF4 000:107.980   ROMTbl[0][3]: E0000000, CID: B105E00D, PID: 001BB001 ITM
T2CF4 000:107.998   CPU_ReadMem(32 bytes @ 0xE0040FE0)
T2CF4 000:109.719   ROMTbl[0][4]: E0040000, CID: B105900D, PID: 001BB923 TPIU-Lite
T2CF4 000:109.736   CPU_ReadMem(32 bytes @ 0xE0041FE0)
T2CF4 000:111.680   ROMTbl[0][5]: E0041000, CID: B105900D, PID: 101BB924 ETM-M3
T2CF4 000:111.746   pIdData->ScanLen=9
T2CF4 000:111.757   
T2CF4 000:111.763   pIdData->NumDevices=2
T2CF4 000:111.772   
T2CF4 000:111.779   pIdData->aId[0]=0x3BA00477
T2CF4 000:111.787   
T2CF4 000:111.793   pIdData->aIrRead[0]=0
T2CF4 000:111.802   
T2CF4 000:111.807   pIdData->aScanLen[0]=0
T2CF4 000:111.816   
T2CF4 000:111.822   pIdData->aScanRead[0]=0
T2CF4 000:111.830   
T2CF4 000:111.836 - 57.858ms
T2CF4 000:111.855 JLINK_JTAG_GetDeviceID(DeviceIndex = 0)
T2CF4 000:111.862 - 0.010ms returns 0x3BA00477
T2CF4 000:111.871 JLINK_JTAG_GetDeviceInfo(DeviceIndex = 0)
T2CF4 000:111.877 - 0.009ms returns 0x00
T2CF4 000:111.885 JLINK_JTAG_GetDeviceID(DeviceIndex = 1)
T2CF4 000:111.891 - 0.009ms returns 0x6414041
T2CF4 000:111.901 JLINK_JTAG_GetDeviceInfo(DeviceIndex = 1)
T2CF4 000:111.907 - 0.009ms returns 0x00
T2CF4 000:111.952 JLINK_GetDLLVersion()  returns 67005
T2CF4 000:111.965 JLINK_CORE_GetFound()
T2CF4 000:111.972 - 0.009ms returns 0x30000FF
T2CF4 000:111.980 JLINK_GetDebugInfo(0x100 = JLINKARM_ROM_TABLE_ADDR_INDEX)
T2CF4 000:111.990   Value=0xE00FF000
T2CF4 000:111.999 - 0.022ms returns 0x00
T2CF4 000:113.492 JLINK_GetDebugInfo(0x100 = JLINKARM_ROM_TABLE_ADDR_INDEX)
T2CF4 000:113.514   Value=0xE00FF000
T2CF4 000:113.526 - 0.037ms returns 0x00
T2CF4 000:113.534 JLINK_GetDebugInfo(0x101 = JLINKARM_DEBUG_INFO_ETM_ADDR_INDEX)
T2CF4 000:113.541   Value=0xE0041000
T2CF4 000:113.550 - 0.018ms returns 0x00
T2CF4 000:113.559   JLINK_ReadMemEx(0xE0041FD0, 0x0020 Bytes, ..., Flags = 0x02000004)
T2CF4 000:113.600   CPU_ReadMem(32 bytes @ 0xE0041FD0)
T2CF4 000:113.928   Data:  04 00 00 00 00 00 00 00 00 00 00 00 00 00 00 00 ...
T2CF4 000:113.949 - 0.395ms returns 0x20
T2CF4 000:113.964 JLINK_GetDebugInfo(0x102 = JLINKARM_DEBUG_INFO_MTB_ADDR_INDEX)
T2CF4 000:113.974   Value=0x00000000
T2CF4 000:113.986 - 0.026ms returns 0x00
T2CF4 000:113.998 JLINK_GetDebugInfo(0x103 = JLINKARM_DEBUG_INFO_TPIU_ADDR_INDEX)
T2CF4 000:114.008   Value=0xE0040000
T2CF4 000:114.020 - 0.029ms returns 0x00
T2CF4 000:114.034 JLINK_GetDebugInfo(0x104 = JLINKARM_DEBUG_INFO_ITM_ADDR_INDEX)
T2CF4 000:114.043   Value=0xE0000000
T2CF4 000:114.054 - 0.024ms returns 0x00
T2CF4 000:114.065 JLINK_GetDebugInfo(0x105 = JLINKARM_DEBUG_INFO_DWT_ADDR_INDEX)
T2CF4 000:114.074   Value=0xE0001000
T2CF4 000:114.085 - 0.024ms returns 0x00
T2CF4 000:114.096 JLINK_GetDebugInfo(0x106 = JLINKARM_DEBUG_INFO_FPB_ADDR_INDEX)
T2CF4 000:114.105   Value=0xE0002000
T2CF4 000:114.116 - 0.024ms returns 0x00
T2CF4 000:114.127 JLINK_GetDebugInfo(0x107 = JLINKARM_DEBUG_INFO_NVIC_ADDR_INDEX)
T2CF4 000:114.136   Value=0xE000E000
T2CF4 000:114.148 - 0.024ms returns 0x00
T2CF4 000:114.157 JLINK_GetDebugInfo(0x10C = JLINKARM_DEBUG_INFO_DBG_ADDR_INDEX)
T2CF4 000:114.163   Value=0xE000EDF0
T2CF4 000:114.172 - 0.018ms returns 0x00
T2CF4 000:114.180 JLINK_GetDebugInfo(0x01 = Unknown)
T2CF4 000:114.193   Value=0x00000000
T2CF4 000:114.202 - 0.024ms returns 0x00
T2CF4 000:114.215 JLINK_ReadMemU32(0xE000ED00, 0x0001 Items, ...)
T2CF4 000:114.228   CPU_ReadMem(4 bytes @ 0xE000ED00)
T2CF4 000:114.489   Data:  31 C2 1F 41
T2CF4 000:114.518    - CPUID
T2CF4 000:114.528 - 0.316ms returns 1
T2CF4 000:114.539 JLINK_GetDebugInfo(0x10F = JLINKARM_DEBUG_INFO_HAS_CORTEX_M_SECURITY_EXT_INDEX)
T2CF4 000:114.546   Value=0x00000000
T2CF4 000:114.554 - 0.018ms returns 0x00
T2CF4 000:114.566 JLINK_SetResetType(JLINKARM_CM3_RESET_TYPE_NORMAL)
T2CF4 000:114.573 - 0.010ms returns JLINKARM_CM3_RESET_TYPE_NORMAL
T2CF4 000:114.581 JLINK_Reset()
T2CF4 000:114.609   CPU is running
T2CF4 000:114.620   CPU_WriteMem(4 bytes @ 0xE000EDF0)
T2CF4 000:114.901   CPU is running
T2CF4 000:114.916   CPU_WriteMem(4 bytes @ 0xE000EDFC)
T2CF4 000:116.966   Reset: Halt core after reset via DEMCR.VC_CORERESET.
T2CF4 000:119.162   Reset: Reset device via AIRCR.SYSRESETREQ.
T2CF4 000:119.188   CPU is running
T2CF4 000:119.201   CPU_WriteMem(4 bytes @ 0xE000ED0C)
T2CF4 000:172.393   CPU_ReadMem(4 bytes @ 0xE000EDF0)
T2CF4 000:172.686   CPU_ReadMem(4 bytes @ 0xE000EDF0)
T2CF4 000:172.944   CPU is running
T2CF4 000:172.965   CPU_WriteMem(4 bytes @ 0xE000EDF0)
T2CF4 000:173.200   CPU is running
T2CF4 000:173.218   CPU_WriteMem(4 bytes @ 0xE000EDFC)
T2CF4 000:179.395   CPU_ReadMem(4 bytes @ 0xE000EDF0)
T2CF4 000:180.871   CPU_WriteMem(4 bytes @ 0xE000EDFC)
T2CF4 000:181.100   CPU_WriteMem(4 bytes @ 0xE0001028)
T2CF4 000:181.307   CPU_WriteMem(4 bytes @ 0xE0001038)
T2CF4 000:181.514   CPU_WriteMem(4 bytes @ 0xE0001048)
T2CF4 000:181.862   CPU_WriteMem(4 bytes @ 0xE0001058)
T2CF4 000:182.099   CPU_WriteMem(4 bytes @ 0xE0002000)
T2CF4 000:182.302   CPU_ReadMem(4 bytes @ 0xE000EDFC)
T2CF4 000:182.532   CPU_ReadMem(4 bytes @ 0xE0001000)
T2CF4 000:182.832 - 68.260ms
T2CF4 000:182.856 JLINK_Halt()
T2CF4 000:182.863 - 0.011ms returns 0x00
T2CF4 000:182.875 JLINK_ReadMemU32(0xE000EDF0, 0x0001 Items, ...)
T2CF4 000:182.891   CPU_ReadMem(4 bytes @ 0xE000EDF0)
T2CF4 000:183.144   Data:  03 00 03 00
T2CF4 000:183.160    - DHCSR
T2CF4 000:183.170 - 0.298ms returns 1
T2CF4 000:183.185 JLINK_WriteU32(0xE000EDF0, 0xA05F0003)
T2CF4 000:183.193    - DHCSR
T2CF4 000:183.221   CPU_WriteMem(4 bytes @ 0xE000EDF0)
T2CF4 000:183.416 - 0.239ms returns 0
T2CF4 000:183.436 JLINK_WriteU32(0xE000EDFC, 0x01000000)
T2CF4 000:183.444    - DEMCR
T2CF4 000:183.461   CPU_WriteMem(4 bytes @ 0xE000EDFC)
T2CF4 000:183.686 - 0.259ms returns 0
T2CF4 000:190.732 JLINK_GetHWStatus(...)
T2CF4 000:190.914 - 0.196ms returns 0x00
T2CF4 000:195.975 JLINK_GetNumBPUnits(Type = 0xFFFFFF00)
T2CF4 000:195.998 - 0.026ms returns 0x06
T2CF4 000:196.007 JLINK_GetNumBPUnits(Type = 0xF0)
T2CF4 000:196.014 - 0.009ms returns 0x2000
T2CF4 000:196.022 JLINK_GetNumWPUnits()
T2CF4 000:196.028 - 0.009ms returns 0x04
T2CF4 000:200.038 JLINK_GetSpeed()
T2CF4 000:200.058 - 0.022ms returns 0x2710
T2CF4 000:202.928 JLINK_ReadMemU32(0xE000E004, 0x0001 Items, ...)
T2CF4 000:202.960   CPU_ReadMem(4 bytes @ 0xE000E004)
T2CF4 000:203.195   Data:  01 00 00 00
T2CF4 000:203.211 - 0.285ms returns 1
T2CF4 000:203.222 JLINK_ReadMemU32(0xE000E004, 0x0001 Items, ...)
T2CF4 000:203.233   CPU_ReadMem(4 bytes @ 0xE000E004)
T2CF4 000:203.458   Data:  01 00 00 00
T2CF4 000:203.475 - 0.256ms returns 1
T2CF4 000:203.487 JLINK_WriteMemEx(0xE0001000, 0x001C Bytes, ..., Flags = 0x02000004)
T2CF4 000:203.495   Data:  01 00 00 00 00 00 00 00 00 00 00 00 00 00 00 00 ...
T2CF4 000:203.986   CPU_WriteMem(28 bytes @ 0xE0001000)
T2CF4 000:204.274 - 0.797ms returns 0x1C
T2CF4 000:204.301 JLINK_Halt()
T2CF4 000:204.317 - 0.019ms returns 0x00
T2CF4 000:204.326 JLINK_IsHalted()
T2CF4 000:204.333 - 0.010ms returns TRUE
T2CF4 000:207.104 JLINK_WriteMem(0x20000000, 0x0164 Bytes, ...)
T2CF4 000:207.119   Data:  00 BE 0A E0 0D 78 2D 06 68 40 08 24 40 00 00 D3 ...
T2CF4 000:207.632   CPU_WriteMem(356 bytes @ 0x20000000)
T2CF4 000:208.781 - 1.689ms returns 0x164
T2CF4 000:208.832 JLINK_WriteReg(R0, 0x08000000)
T2CF4 000:208.844 - 0.016ms returns 0x00
T2CF4 000:208.853 JLINK_WriteReg(R1, 0x00B71B00)
T2CF4 000:208.861 - 0.010ms returns 0x00
T2CF4 000:208.869 JLINK_WriteReg(R2, 0x00000001)
T2CF4 000:208.876 - 0.013ms returns 0x00
T2CF4 000:208.890 JLINK_WriteReg(R3, 0x00000000)
T2CF4 000:208.897 - 0.010ms returns 0x00
T2CF4 000:208.905 JLINK_WriteReg(R4, 0x00000000)
T2CF4 000:208.912 - 0.010ms returns 0x00
T2CF4 000:208.920 JLINK_WriteReg(R5, 0x00000000)
T2CF4 000:208.927 - 0.010ms returns 0x00
T2CF4 000:208.935 JLINK_WriteReg(R6, 0x00000000)
T2CF4 000:208.942 - 0.010ms returns 0x00
T2CF4 000:208.950 JLINK_WriteReg(R7, 0x00000000)
T2CF4 000:208.957 - 0.010ms returns 0x00
T2CF4 000:208.965 JLINK_WriteReg(R8, 0x00000000)
T2CF4 000:208.972 - 0.010ms returns 0x00
T2CF4 000:208.980 JLINK_WriteReg(R9, 0x20000160)
T2CF4 000:208.987 - 0.010ms returns 0x00
T2CF4 000:208.995 JLINK_WriteReg(R10, 0x00000000)
T2CF4 000:209.002 - 0.010ms returns 0x00
T2CF4 000:209.010 JLINK_WriteReg(R11, 0x00000000)
T2CF4 000:209.017 - 0.010ms returns 0x00
T2CF4 000:209.026 JLINK_WriteReg(R12, 0x00000000)
T2CF4 000:209.032 - 0.009ms returns 0x00
T2CF4 000:209.040 JLINK_WriteReg(R13 (SP), 0x20001000)
T2CF4 000:209.048 - 0.011ms returns 0x00
T2CF4 000:209.056 JLINK_WriteReg(R14, 0x20000001)
T2CF4 000:209.063 - 0.011ms returns 0x00
T2CF4 000:209.074 JLINK_WriteReg(R15 (PC), 0x20000038)
T2CF4 000:209.085 - 0.014ms returns 0x00
T2CF4 000:209.096 JLINK_WriteReg(XPSR, 0x01000000)
T2CF4 000:209.106 - 0.012ms returns 0x00
T2CF4 000:209.114 JLINK_WriteReg(MSP, 0x20001000)
T2CF4 000:209.121 - 0.009ms returns 0x00
T2CF4 000:209.128 JLINK_WriteReg(PSP, 0x20001000)
T2CF4 000:209.135 - 0.009ms returns 0x00
T2CF4 000:209.144 JLINK_WriteReg(CFBP, 0x00000000)
T2CF4 000:209.154 - 0.013ms returns 0x00
T2CF4 000:209.163   JLINK_SetBPEx(Addr = 0x20000000, Type = 0xFFFFFFF2)
T2CF4 000:209.178   CPU_ReadMem(2 bytes @ 0x20000000)
T2CF4 000:209.418 - 0.265ms returns 0x00000001
T2CF4 000:209.438 JLINK_Go()
T2CF4 000:209.449   CPU_WriteMem(2 bytes @ 0x20000000)
T2CF4 000:209.674   CPU_ReadMem(4 bytes @ 0xE0001000)
T2CF4 000:209.927   CPU_WriteMem(4 bytes @ 0xE0002008)
T2CF4 000:209.942   CPU_WriteMem(4 bytes @ 0xE000200C)
T2CF4 000:209.952   CPU_WriteMem(4 bytes @ 0xE0002010)
T2CF4 000:209.961   CPU_WriteMem(4 bytes @ 0xE0002014)
T2CF4 000:209.970   CPU_WriteMem(4 bytes @ 0xE0002018)
T2CF4 000:209.979   CPU_WriteMem(4 bytes @ 0xE000201C)
T2CF4 000:210.796   CPU_WriteMem(4 bytes @ 0xE0001004)
T2CF4 000:212.173 - 2.743ms
T2CF4 000:212.193 JLINK_IsHalted()
T2CF4 000:213.307   CPU_ReadMem(2 bytes @ 0x20000000)
T2CF4 000:213.622 - 1.438ms returns TRUE
T2CF4 000:213.643 JLINK_ReadReg(R15 (PC))
T2CF4 000:213.654 - 0.014ms returns 0x20000000
T2CF4 000:213.664 JLINK_ClrBPEx(BPHandle = 0x00000001)
T2CF4 000:213.672 - 0.010ms returns 0x00
T2CF4 000:213.682 JLINK_ReadReg(R0)
T2CF4 000:213.688 - 0.010ms returns 0x00000000
T2CF4 000:214.014 JLINK_WriteReg(R0, 0x08000000)
T2CF4 000:214.028 - 0.016ms returns 0x00
T2CF4 000:214.036 JLINK_WriteReg(R1, 0x00B71B00)
T2CF4 000:214.043 - 0.010ms returns 0x00
T2CF4 000:214.051 JLINK_WriteReg(R2, 0x00000001)
T2CF4 000:214.058 - 0.009ms returns 0x00
T2CF4 000:214.065 JLINK_WriteReg(R3, 0x00000000)
T2CF4 000:214.072 - 0.009ms returns 0x00
T2CF4 000:214.080 JLINK_WriteReg(R4, 0x00000000)
T2CF4 000:214.086 - 0.009ms returns 0x00
T2CF4 000:214.094 JLINK_WriteReg(R5, 0x00000000)
T2CF4 000:214.101 - 0.009ms returns 0x00
T2CF4 000:214.108 JLINK_WriteReg(R6, 0x00000000)
T2CF4 000:214.115 - 0.009ms returns 0x00
T2CF4 000:214.123 JLINK_WriteReg(R7, 0x00000000)
T2CF4 000:214.129 - 0.009ms returns 0x00
T2CF4 000:214.137 JLINK_WriteReg(R8, 0x00000000)
T2CF4 000:214.144 - 0.009ms returns 0x00
T2CF4 000:214.152 JLINK_WriteReg(R9, 0x20000160)
T2CF4 000:214.158 - 0.009ms returns 0x00
T2CF4 000:214.166 JLINK_WriteReg(R10, 0x00000000)
T2CF4 000:214.173 - 0.009ms returns 0x00
T2CF4 000:214.180 JLINK_WriteReg(R11, 0x00000000)
T2CF4 000:214.187 - 0.009ms returns 0x00
T2CF4 000:214.195 JLINK_WriteReg(R12, 0x00000000)
T2CF4 000:214.201 - 0.009ms returns 0x00
T2CF4 000:214.209 JLINK_WriteReg(R13 (SP), 0x20001000)
T2CF4 000:214.217 - 0.010ms returns 0x00
T2CF4 000:214.225 JLINK_WriteReg(R14, 0x20000001)
T2CF4 000:214.275 - 0.055ms returns 0x00
T2CF4 000:214.285 JLINK_WriteReg(R15 (PC), 0x2000007C)
T2CF4 000:214.292 - 0.010ms returns 0x00
T2CF4 000:214.300 JLINK_WriteReg(XPSR, 0x01000000)
T2CF4 000:214.307 - 0.009ms returns 0x00
T2CF4 000:214.315 JLINK_WriteReg(MSP, 0x20001000)
T2CF4 000:214.321 - 0.009ms returns 0x00
T2CF4 000:214.329 JLINK_WriteReg(PSP, 0x20001000)
T2CF4 000:214.336 - 0.009ms returns 0x00
T2CF4 000:214.343 JLINK_WriteReg(CFBP, 0x00000000)
T2CF4 000:214.350 - 0.009ms returns 0x00
T2CF4 000:214.359   JLINK_SetBPEx(Addr = 0x20000000, Type = 0xFFFFFFF2)
T2CF4 000:214.369 - 0.014ms returns 0x00000002
T2CF4 000:214.378 JLINK_Go()
T2CF4 000:214.392   CPU_ReadMem(4 bytes @ 0xE0001000)
T2CF4 000:215.866 - 1.499ms
T2CF4 000:215.885 JLINK_IsHalted()
T2CF4 000:216.104 - 0.226ms returns FALSE
T2CF4 000:235.248 JLINK_IsHalted()
T2CF4 000:235.499 - 0.262ms returns FALSE
T2CF4 000:237.208 JLINK_IsHalted()
T2CF4 000:237.458 - 0.259ms returns FALSE
T2CF4 000:239.202 JLINK_IsHalted()
T2CF4 000:240.355   CPU_ReadMem(2 bytes @ 0x20000000)
T2CF4 000:240.610 - 1.419ms returns TRUE
T2CF4 000:240.637 JLINK_ReadReg(R15 (PC))
T2CF4 000:240.651 - 0.019ms returns 0x20000000
T2CF4 000:240.665 JLINK_ClrBPEx(BPHandle = 0x00000002)
T2CF4 000:240.676 - 0.015ms returns 0x00
T2CF4 000:240.688 JLINK_ReadReg(R0)
T2CF4 000:240.698 - 0.015ms returns 0x00000000
T2CF4 000:294.678 JLINK_WriteReg(R0, 0x00000001)
T2CF4 000:294.706 - 0.032ms returns 0x00
T2CF4 000:294.716 JLINK_WriteReg(R1, 0x00B71B00)
T2CF4 000:294.724 - 0.011ms returns 0x00
T2CF4 000:294.733 JLINK_WriteReg(R2, 0x00000001)
T2CF4 000:294.740 - 0.010ms returns 0x00
T2CF4 000:294.750 JLINK_WriteReg(R3, 0x00000000)
T2CF4 000:294.757 - 0.010ms returns 0x00
T2CF4 000:294.766 JLINK_WriteReg(R4, 0x00000000)
T2CF4 000:294.773 - 0.010ms returns 0x00
T2CF4 000:294.782 JLINK_WriteReg(R5, 0x00000000)
T2CF4 000:294.789 - 0.010ms returns 0x00
T2CF4 000:294.798 JLINK_WriteReg(R6, 0x00000000)
T2CF4 000:294.806 - 0.011ms returns 0x00
T2CF4 000:294.814 JLINK_WriteReg(R7, 0x00000000)
T2CF4 000:294.822 - 0.010ms returns 0x00
T2CF4 000:294.831 JLINK_WriteReg(R8, 0x00000000)
T2CF4 000:294.838 - 0.010ms returns 0x00
T2CF4 000:294.847 JLINK_WriteReg(R9, 0x20000160)
T2CF4 000:294.854 - 0.010ms returns 0x00
T2CF4 000:294.863 JLINK_WriteReg(R10, 0x00000000)
T2CF4 000:294.870 - 0.010ms returns 0x00
T2CF4 000:294.879 JLINK_WriteReg(R11, 0x00000000)
T2CF4 000:294.886 - 0.011ms returns 0x00
T2CF4 000:294.895 JLINK_WriteReg(R12, 0x00000000)
T2CF4 000:294.902 - 0.010ms returns 0x00
T2CF4 000:294.911 JLINK_WriteReg(R13 (SP), 0x20001000)
T2CF4 000:294.920 - 0.012ms returns 0x00
T2CF4 000:294.929 JLINK_WriteReg(R14, 0x20000001)
T2CF4 000:294.936 - 0.011ms returns 0x00
T2CF4 000:294.945 JLINK_WriteReg(R15 (PC), 0x2000006A)
T2CF4 000:294.952 - 0.011ms returns 0x00
T2CF4 000:294.961 JLINK_WriteReg(XPSR, 0x01000000)
T2CF4 000:294.969 - 0.010ms returns 0x00
T2CF4 000:294.977 JLINK_WriteReg(MSP, 0x20001000)
T2CF4 000:294.985 - 0.010ms returns 0x00
T2CF4 000:294.994 JLINK_WriteReg(PSP, 0x20001000)
T2CF4 000:295.001 - 0.010ms returns 0x00
T2CF4 000:295.010 JLINK_WriteReg(CFBP, 0x00000000)
T2CF4 000:295.017 - 0.010ms returns 0x00
T2CF4 000:295.027   JLINK_SetBPEx(Addr = 0x20000000, Type = 0xFFFFFFF2)
T2CF4 000:295.041 - 0.018ms returns 0x00000003
T2CF4 000:295.050 JLINK_Go()
T2CF4 000:295.068   CPU_ReadMem(4 bytes @ 0xE0001000)
T2CF4 000:296.593 - 1.555ms
T2CF4 000:296.615 JLINK_IsHalted()
T2CF4 000:297.850   CPU_ReadMem(2 bytes @ 0x20000000)
T2CF4 000:298.076 - 1.469ms returns TRUE
T2CF4 000:298.093 JLINK_ReadReg(R15 (PC))
T2CF4 000:298.103 - 0.014ms returns 0x20000000
T2CF4 000:298.113 JLINK_ClrBPEx(BPHandle = 0x00000003)
T2CF4 000:298.121 - 0.012ms returns 0x00
T2CF4 000:298.131 JLINK_ReadReg(R0)
T2CF4 000:298.139 - 0.011ms returns 0x00000000
T2CF4 000:302.978 JLINK_WriteMem(0x20000000, 0x0164 Bytes, ...)
T2CF4 000:302.994   Data:  00 BE 0A E0 0D 78 2D 06 68 40 08 24 40 00 00 D3 ...
T2CF4 000:303.032   CPU_WriteMem(356 bytes @ 0x20000000)
T2CF4 000:304.151 - 1.181ms returns 0x164
T2CF4 000:304.190 JLINK_WriteReg(R0, 0x08000000)
T2CF4 000:304.201 - 0.015ms returns 0x00
T2CF4 000:304.211 JLINK_WriteReg(R1, 0x00B71B00)
T2CF4 000:304.219 - 0.011ms returns 0x00
T2CF4 000:304.228 JLINK_WriteReg(R2, 0x00000002)
T2CF4 000:304.235 - 0.011ms returns 0x00
T2CF4 000:304.244 JLINK_WriteReg(R3, 0x00000000)
T2CF4 000:304.252 - 0.011ms returns 0x00
T2CF4 000:304.261 JLINK_WriteReg(R4, 0x00000000)
T2CF4 000:304.268 - 0.011ms returns 0x00
T2CF4 000:304.278 JLINK_WriteReg(R5, 0x00000000)
T2CF4 000:304.285 - 0.011ms returns 0x00
T2CF4 000:304.294 JLINK_WriteReg(R6, 0x00000000)
T2CF4 000:304.302 - 0.011ms returns 0x00
T2CF4 000:304.311 JLINK_WriteReg(R7, 0x00000000)
T2CF4 000:304.319 - 0.011ms returns 0x00
T2CF4 000:304.328 JLINK_WriteReg(R8, 0x00000000)
T2CF4 000:304.335 - 0.011ms returns 0x00
T2CF4 000:304.344 JLINK_WriteReg(R9, 0x20000160)
T2CF4 000:304.352 - 0.011ms returns 0x00
T2CF4 000:304.361 JLINK_WriteReg(R10, 0x00000000)
T2CF4 000:304.368 - 0.011ms returns 0x00
T2CF4 000:304.377 JLINK_WriteReg(R11, 0x00000000)
T2CF4 000:304.385 - 0.011ms returns 0x00
T2CF4 000:304.394 JLINK_WriteReg(R12, 0x00000000)
T2CF4 000:304.401 - 0.011ms returns 0x00
T2CF4 000:304.410 JLINK_WriteReg(R13 (SP), 0x20001000)
T2CF4 000:304.419 - 0.012ms returns 0x00
T2CF4 000:304.428 JLINK_WriteReg(R14, 0x20000001)
T2CF4 000:304.435 - 0.011ms returns 0x00
T2CF4 000:304.444 JLINK_WriteReg(R15 (PC), 0x20000038)
T2CF4 000:304.452 - 0.011ms returns 0x00
T2CF4 000:304.461 JLINK_WriteReg(XPSR, 0x01000000)
T2CF4 000:304.469 - 0.011ms returns 0x00
T2CF4 000:304.478 JLINK_WriteReg(MSP, 0x20001000)
T2CF4 000:304.485 - 0.011ms returns 0x00
T2CF4 000:304.494 JLINK_WriteReg(PSP, 0x20001000)
T2CF4 000:304.502 - 0.011ms returns 0x00
T2CF4 000:304.511 JLINK_WriteReg(CFBP, 0x00000000)
T2CF4 000:304.518 - 0.011ms returns 0x00
T2CF4 000:304.528   JLINK_SetBPEx(Addr = 0x20000000, Type = 0xFFFFFFF2)
T2CF4 000:304.543   CPU_ReadMem(2 bytes @ 0x20000000)
T2CF4 000:304.813 - 0.293ms returns 0x00000004
T2CF4 000:304.829 JLINK_Go()
T2CF4 000:304.840   CPU_WriteMem(2 bytes @ 0x20000000)
T2CF4 000:305.098   CPU_ReadMem(4 bytes @ 0xE0001000)
T2CF4 000:306.714 - 1.894ms
T2CF4 000:306.732 JLINK_IsHalted()
T2CF4 000:308.027   CPU_ReadMem(2 bytes @ 0x20000000)
T2CF4 000:308.313 - 1.591ms returns TRUE
T2CF4 000:308.332 JLINK_ReadReg(R15 (PC))
T2CF4 000:308.343 - 0.014ms returns 0x20000000
T2CF4 000:308.353 JLINK_ClrBPEx(BPHandle = 0x00000004)
T2CF4 000:308.361 - 0.012ms returns 0x00
T2CF4 000:308.371 JLINK_ReadReg(R0)
T2CF4 000:308.378 - 0.011ms returns 0x00000000
T2CF4 000:309.973 JLINK_WriteMem(0x20000164, 0x029C Bytes, ...)
T2CF4 000:309.987   Data:  48 94 00 20 45 01 00 08 23 28 00 08 15 12 00 08 ...
T2CF4 000:310.017   CPU_WriteMem(668 bytes @ 0x20000164)
T2CF4 000:311.690 - 1.728ms returns 0x29C
T2CF4 000:311.710 JLINK_WriteMem(0x20000400, 0x0164 Bytes, ...)
T2CF4 000:311.719   Data:  C2 B2 0C 06 04 EB D0 10 40 1C 40 08 80 2A 02 D0 ...
T2CF4 000:311.739   CPU_WriteMem(356 bytes @ 0x20000400)
T2CF4 000:312.859 - 1.159ms returns 0x164
T2CF4 000:312.884 JLINK_WriteReg(R0, 0x08000000)
T2CF4 000:312.896 - 0.017ms returns 0x00
T2CF4 000:312.906 JLINK_WriteReg(R1, 0x00000400)
T2CF4 000:312.914 - 0.011ms returns 0x00
T2CF4 000:312.923 JLINK_WriteReg(R2, 0x20000164)
T2CF4 000:312.931 - 0.011ms returns 0x00
T2CF4 000:312.940 JLINK_WriteReg(R3, 0x00000000)
T2CF4 000:312.947 - 0.011ms returns 0x00
T2CF4 000:312.956 JLINK_WriteReg(R4, 0x00000000)
T2CF4 000:312.963 - 0.011ms returns 0x00
T2CF4 000:312.972 JLINK_WriteReg(R5, 0x00000000)
T2CF4 000:312.980 - 0.011ms returns 0x00
T2CF4 000:312.991 JLINK_WriteReg(R6, 0x00000000)
T2CF4 000:312.998 - 0.011ms returns 0x00
T2CF4 000:313.007 JLINK_WriteReg(R7, 0x00000000)
T2CF4 000:313.014 - 0.011ms returns 0x00
T2CF4 000:313.023 JLINK_WriteReg(R8, 0x00000000)
T2CF4 000:313.031 - 0.011ms returns 0x00
T2CF4 000:313.040 JLINK_WriteReg(R9, 0x20000160)
T2CF4 000:313.047 - 0.010ms returns 0x00
T2CF4 000:313.056 JLINK_WriteReg(R10, 0x00000000)
T2CF4 000:313.069 - 0.016ms returns 0x00
T2CF4 000:313.078 JLINK_WriteReg(R11, 0x00000000)
T2CF4 000:313.085 - 0.011ms returns 0x00
T2CF4 000:313.094 JLINK_WriteReg(R12, 0x00000000)
T2CF4 000:313.101 - 0.011ms returns 0x00
T2CF4 000:313.110 JLINK_WriteReg(R13 (SP), 0x20001000)
T2CF4 000:313.119 - 0.012ms returns 0x00
T2CF4 000:313.128 JLINK_WriteReg(R14, 0x20000001)
T2CF4 000:313.135 - 0.011ms returns 0x00
T2CF4 000:313.144 JLINK_WriteReg(R15 (PC), 0x200000F4)
T2CF4 000:313.152 - 0.011ms returns 0x00
T2CF4 000:313.161 JLINK_WriteReg(XPSR, 0x01000000)
T2CF4 000:313.168 - 0.010ms returns 0x00
T2CF4 000:313.177 JLINK_WriteReg(MSP, 0x20001000)
T2CF4 000:313.185 - 0.011ms returns 0x00
T2CF4 000:313.194 JLINK_WriteReg(PSP, 0x20001000)
T2CF4 000:313.201 - 0.011ms returns 0x00
T2CF4 000:313.210 JLINK_WriteReg(CFBP, 0x00000000)
T2CF4 000:313.218 - 0.011ms returns 0x00
T2CF4 000:313.227   JLINK_SetBPEx(Addr = 0x20000000, Type = 0xFFFFFFF2)
T2CF4 000:313.239 - 0.016ms returns 0x00000005
T2CF4 000:313.248 JLINK_Go()
T2CF4 000:313.264   CPU_ReadMem(4 bytes @ 0xE0001000)
T2CF4 000:314.811 - 1.573ms
T2CF4 000:314.831 JLINK_IsHalted()
T2CF4 000:315.053 - 0.230ms returns FALSE
T2CF4 000:324.974 JLINK_IsHalted()
T2CF4 000:325.275 - 0.311ms returns FALSE
T2CF4 000:327.019 JLINK_IsHalted()
T2CF4 000:327.277 - 0.265ms returns FALSE
T2CF4 000:328.987 JLINK_IsHalted()
T2CF4 000:329.304 - 0.326ms returns FALSE
T2CF4 000:330.990 JLINK_IsHalted()
T2CF4 000:331.305 - 0.324ms returns FALSE
T2CF4 000:332.988 JLINK_IsHalted()
T2CF4 000:333.273 - 0.293ms returns FALSE
T2CF4 000:334.944 JLINK_IsHalted()
T2CF4 000:335.207 - 0.271ms returns FALSE
T2CF4 000:336.989 JLINK_IsHalted()
T2CF4 000:337.252 - 0.271ms returns FALSE
T2CF4 000:339.044 JLINK_IsHalted()
T2CF4 000:339.313 - 0.276ms returns FALSE
T2CF4 000:340.933 JLINK_IsHalted()
T2CF4 000:341.174 - 0.248ms returns FALSE
T2CF4 000:342.917 JLINK_IsHalted()
T2CF4 000:343.179 - 0.269ms returns FALSE
T2CF4 000:344.910 JLINK_IsHalted()
T2CF4 000:345.174 - 0.271ms returns FALSE
T2CF4 000:346.921 JLINK_IsHalted()
T2CF4 000:348.234   CPU_ReadMem(2 bytes @ 0x20000000)
T2CF4 000:348.565 - 1.652ms returns TRUE
T2CF4 000:348.582 JLINK_ReadReg(R15 (PC))
T2CF4 000:348.593 - 0.014ms returns 0x20000000
T2CF4 000:348.602 JLINK_ClrBPEx(BPHandle = 0x00000005)
T2CF4 000:348.610 - 0.011ms returns 0x00
T2CF4 000:348.620 JLINK_ReadReg(R0)
T2CF4 000:348.628 - 0.011ms returns 0x00000000
T2CF4 000:349.175 JLINK_WriteMem(0x20000164, 0x029C Bytes, ...)
T2CF4 000:349.187   Data:  18 46 22 46 00 F0 18 FA 2D 1A 67 EB 01 08 4F 46 ...
T2CF4 000:349.205   CPU_WriteMem(668 bytes @ 0x20000164)
T2CF4 000:350.898 - 1.733ms returns 0x29C
T2CF4 000:350.918 JLINK_WriteMem(0x20000400, 0x0164 Bytes, ...)
T2CF4 000:350.928   Data:  51 46 E7 FB 02 01 C5 F3 13 04 4F EA 0B 33 43 EA ...
T2CF4 000:350.964   CPU_WriteMem(356 bytes @ 0x20000400)
T2CF4 000:352.072 - 1.163ms returns 0x164
T2CF4 000:352.093 JLINK_WriteReg(R0, 0x08000400)
T2CF4 000:352.104 - 0.014ms returns 0x00
T2CF4 000:352.113 JLINK_WriteReg(R1, 0x00000400)
T2CF4 000:352.121 - 0.011ms returns 0x00
T2CF4 000:352.130 JLINK_WriteReg(R2, 0x20000164)
T2CF4 000:352.138 - 0.011ms returns 0x00
T2CF4 000:352.147 JLINK_WriteReg(R3, 0x00000000)
T2CF4 000:352.154 - 0.011ms returns 0x00
T2CF4 000:352.163 JLINK_WriteReg(R4, 0x00000000)
T2CF4 000:352.171 - 0.011ms returns 0x00
T2CF4 000:352.180 JLINK_WriteReg(R5, 0x00000000)
T2CF4 000:352.188 - 0.011ms returns 0x00
T2CF4 000:352.197 JLINK_WriteReg(R6, 0x00000000)
T2CF4 000:352.204 - 0.011ms returns 0x00
T2CF4 000:352.213 JLINK_WriteReg(R7, 0x00000000)
T2CF4 000:352.221 - 0.011ms returns 0x00
T2CF4 000:352.230 JLINK_WriteReg(R8, 0x00000000)
T2CF4 000:352.238 - 0.011ms returns 0x00
T2CF4 000:352.247 JLINK_WriteReg(R9, 0x20000160)
T2CF4 000:352.254 - 0.011ms returns 0x00
T2CF4 000:352.263 JLINK_WriteReg(R10, 0x00000000)
T2CF4 000:352.271 - 0.011ms returns 0x00
T2CF4 000:352.280 JLINK_WriteReg(R11, 0x00000000)
T2CF4 000:352.287 - 0.014ms returns 0x00
T2CF4 000:352.302 JLINK_WriteReg(R12, 0x00000000)
T2CF4 000:352.309 - 0.011ms returns 0x00
T2CF4 000:352.318 JLINK_WriteReg(R13 (SP), 0x20001000)
T2CF4 000:352.327 - 0.011ms returns 0x00
T2CF4 000:352.336 JLINK_WriteReg(R14, 0x20000001)
T2CF4 000:352.343 - 0.011ms returns 0x00
T2CF4 000:352.352 JLINK_WriteReg(R15 (PC), 0x200000F4)
T2CF4 000:352.360 - 0.011ms returns 0x00
T2CF4 000:352.369 JLINK_WriteReg(XPSR, 0x01000000)
T2CF4 000:352.376 - 0.011ms returns 0x00
T2CF4 000:352.385 JLINK_WriteReg(MSP, 0x20001000)
T2CF4 000:352.393 - 0.011ms returns 0x00
T2CF4 000:352.402 JLINK_WriteReg(PSP, 0x20001000)
T2CF4 000:352.409 - 0.011ms returns 0x00
T2CF4 000:352.418 JLINK_WriteReg(CFBP, 0x00000000)
T2CF4 000:352.426 - 0.011ms returns 0x00
T2CF4 000:352.435   JLINK_SetBPEx(Addr = 0x20000000, Type = 0xFFFFFFF2)
T2CF4 000:352.447 - 0.015ms returns 0x00000006
T2CF4 000:352.456 JLINK_Go()
T2CF4 000:352.471   CPU_ReadMem(4 bytes @ 0xE0001000)
T2CF4 000:354.040 - 1.592ms
T2CF4 000:354.056 JLINK_IsHalted()
T2CF4 000:354.316 - 0.267ms returns FALSE
T2CF4 000:355.881 JLINK_IsHalted()
T2CF4 000:356.156 - 0.282ms returns FALSE
T2CF4 000:357.938 JLINK_IsHalted()
T2CF4 000:358.220 - 0.290ms returns FALSE
T2CF4 000:359.871 JLINK_IsHalted()
T2CF4 000:360.150 - 0.287ms returns FALSE
T2CF4 000:361.935 JLINK_IsHalted()
T2CF4 000:362.264 - 0.338ms returns FALSE
T2CF4 000:363.861 JLINK_IsHalted()
T2CF4 000:364.129 - 0.276ms returns FALSE
T2CF4 000:365.861 JLINK_IsHalted()
T2CF4 000:366.144 - 0.290ms returns FALSE
T2CF4 000:367.862 JLINK_IsHalted()
T2CF4 000:368.108 - 0.256ms returns FALSE
T2CF4 000:369.846 JLINK_IsHalted()
T2CF4 000:370.166 - 0.330ms returns FALSE
T2CF4 000:371.841 JLINK_IsHalted()
T2CF4 000:372.133 - 0.299ms returns FALSE
T2CF4 000:373.837 JLINK_IsHalted()
T2CF4 000:374.116 - 0.287ms returns FALSE
T2CF4 000:375.826 JLINK_IsHalted()
T2CF4 000:376.090 - 0.271ms returns FALSE
T2CF4 000:377.823 JLINK_IsHalted()
T2CF4 000:378.099 - 0.283ms returns FALSE
T2CF4 000:379.858 JLINK_IsHalted()
T2CF4 000:380.119 - 0.268ms returns FALSE
T2CF4 000:381.815 JLINK_IsHalted()
T2CF4 000:382.078 - 0.271ms returns FALSE
T2CF4 000:383.805 JLINK_IsHalted()
T2CF4 000:384.076 - 0.279ms returns FALSE
T2CF4 000:385.803 JLINK_IsHalted()
T2CF4 000:387.077   CPU_ReadMem(2 bytes @ 0x20000000)
T2CF4 000:387.395 - 1.600ms returns TRUE
T2CF4 000:387.412 JLINK_ReadReg(R15 (PC))
T2CF4 000:387.422 - 0.014ms returns 0x20000000
T2CF4 000:387.432 JLINK_ClrBPEx(BPHandle = 0x00000006)
T2CF4 000:387.440 - 0.011ms returns 0x00
T2CF4 000:387.450 JLINK_ReadReg(R0)
T2CF4 000:387.458 - 0.011ms returns 0x00000000
T2CF4 000:388.282 JLINK_WriteMem(0x20000164, 0x029C Bytes, ...)
T2CF4 000:388.297   Data:  1C 46 4F F0 00 43 52 42 63 EB 04 03 99 42 08 BF ...
T2CF4 000:388.317   CPU_WriteMem(668 bytes @ 0x20000164)
T2CF4 000:390.152 - 1.879ms returns 0x29C
T2CF4 000:390.171 JLINK_WriteMem(0x20000400, 0x0164 Bytes, ...)
T2CF4 000:390.179   Data:  A0 20 00 F0 A1 FD 00 F0 41 FF 05 46 00 F0 12 FF ...
T2CF4 000:390.197   CPU_WriteMem(356 bytes @ 0x20000400)
T2CF4 000:391.323 - 1.163ms returns 0x164
T2CF4 000:391.348 JLINK_WriteReg(R0, 0x08000800)
T2CF4 000:391.360 - 0.016ms returns 0x00
T2CF4 000:391.370 JLINK_WriteReg(R1, 0x00000400)
T2CF4 000:391.378 - 0.011ms returns 0x00
T2CF4 000:391.387 JLINK_WriteReg(R2, 0x20000164)
T2CF4 000:391.396 - 0.011ms returns 0x00
T2CF4 000:391.405 JLINK_WriteReg(R3, 0x00000000)
T2CF4 000:391.413 - 0.011ms returns 0x00
T2CF4 000:391.422 JLINK_WriteReg(R4, 0x00000000)
T2CF4 000:391.430 - 0.011ms returns 0x00
T2CF4 000:391.439 JLINK_WriteReg(R5, 0x00000000)
T2CF4 000:391.447 - 0.011ms returns 0x00
T2CF4 000:391.456 JLINK_WriteReg(R6, 0x00000000)
T2CF4 000:391.463 - 0.011ms returns 0x00
T2CF4 000:391.473 JLINK_WriteReg(R7, 0x00000000)
T2CF4 000:391.480 - 0.011ms returns 0x00
T2CF4 000:391.490 JLINK_WriteReg(R8, 0x00000000)
T2CF4 000:391.498 - 0.011ms returns 0x00
T2CF4 000:391.507 JLINK_WriteReg(R9, 0x20000160)
T2CF4 000:391.514 - 0.011ms returns 0x00
T2CF4 000:391.566 JLINK_WriteReg(R10, 0x00000000)
T2CF4 000:391.577 - 0.014ms returns 0x00
T2CF4 000:391.587 JLINK_WriteReg(R11, 0x00000000)
T2CF4 000:391.594 - 0.011ms returns 0x00
T2CF4 000:391.604 JLINK_WriteReg(R12, 0x00000000)
T2CF4 000:391.611 - 0.011ms returns 0x00
T2CF4 000:391.621 JLINK_WriteReg(R13 (SP), 0x20001000)
T2CF4 000:391.629 - 0.012ms returns 0x00
T2CF4 000:391.638 JLINK_WriteReg(R14, 0x20000001)
T2CF4 000:391.646 - 0.011ms returns 0x00
T2CF4 000:391.655 JLINK_WriteReg(R15 (PC), 0x200000F4)
T2CF4 000:391.663 - 0.011ms returns 0x00
T2CF4 000:391.672 JLINK_WriteReg(XPSR, 0x01000000)
T2CF4 000:391.680 - 0.011ms returns 0x00
T2CF4 000:391.689 JLINK_WriteReg(MSP, 0x20001000)
T2CF4 000:391.697 - 0.011ms returns 0x00
T2CF4 000:391.706 JLINK_WriteReg(PSP, 0x20001000)
T2CF4 000:391.713 - 0.011ms returns 0x00
T2CF4 000:391.723 JLINK_WriteReg(CFBP, 0x00000000)
T2CF4 000:391.730 - 0.011ms returns 0x00
T2CF4 000:391.740   JLINK_SetBPEx(Addr = 0x20000000, Type = 0xFFFFFFF2)
T2CF4 000:391.752 - 0.016ms returns 0x00000007
T2CF4 000:391.762 JLINK_Go()
T2CF4 000:391.781   CPU_ReadMem(4 bytes @ 0xE0001000)
T2CF4 000:393.399 - 1.646ms
T2CF4 000:393.416 JLINK_IsHalted()
T2CF4 000:393.663 - 0.254ms returns FALSE
T2CF4 000:394.777 JLINK_IsHalted()
T2CF4 000:395.044 - 0.275ms returns FALSE
T2CF4 000:396.838 JLINK_IsHalted()
T2CF4 000:397.067 - 0.237ms returns FALSE
T2CF4 000:398.800 JLINK_IsHalted()
T2CF4 000:399.063 - 0.272ms returns FALSE
T2CF4 000:400.770 JLINK_IsHalted()
T2CF4 000:400.986 - 0.226ms returns FALSE
T2CF4 000:402.758 JLINK_IsHalted()
T2CF4 000:403.041 - 0.291ms returns FALSE
T2CF4 000:404.754 JLINK_IsHalted()
T2CF4 000:405.005 - 0.259ms returns FALSE
T2CF4 000:406.797 JLINK_IsHalted()
T2CF4 000:407.040 - 0.250ms returns FALSE
T2CF4 000:408.740 JLINK_IsHalted()
T2CF4 000:409.004 - 0.271ms returns FALSE
T2CF4 000:410.741 JLINK_IsHalted()
T2CF4 000:410.955 - 0.224ms returns FALSE
T2CF4 000:419.724 JLINK_IsHalted()
T2CF4 000:419.999 - 0.287ms returns FALSE
T2CF4 000:421.783 JLINK_IsHalted()
T2CF4 000:422.056 - 0.283ms returns FALSE
T2CF4 000:423.754 JLINK_IsHalted()
T2CF4 000:424.016 - 0.268ms returns FALSE
T2CF4 000:425.761 JLINK_IsHalted()
T2CF4 000:427.038   CPU_ReadMem(2 bytes @ 0x20000000)
T2CF4 000:427.340 - 1.587ms returns TRUE
T2CF4 000:427.356 JLINK_ReadReg(R15 (PC))
T2CF4 000:427.366 - 0.014ms returns 0x20000000
T2CF4 000:427.377 JLINK_ClrBPEx(BPHandle = 0x00000007)
T2CF4 000:427.385 - 0.012ms returns 0x00
T2CF4 000:427.395 JLINK_ReadReg(R0)
T2CF4 000:427.403 - 0.011ms returns 0x00000000
T2CF4 000:427.985 JLINK_WriteMem(0x20000164, 0x029C Bytes, ...)
T2CF4 000:427.998   Data:  70 47 00 BF 10 B5 82 79 15 49 E2 B1 02 68 0B 68 ...
T2CF4 000:428.015   CPU_WriteMem(668 bytes @ 0x20000164)
T2CF4 000:429.821 - 1.849ms returns 0x29C
T2CF4 000:429.844 JLINK_WriteMem(0x20000400, 0x0164 Bytes, ...)
T2CF4 000:429.852   Data:  05 46 19 A0 14 46 0E 46 07 F0 68 F9 68 46 31 46 ...
T2CF4 000:429.871   CPU_WriteMem(356 bytes @ 0x20000400)
T2CF4 000:430.953 - 1.125ms returns 0x164
T2CF4 000:430.987 JLINK_WriteReg(R0, 0x08000C00)
T2CF4 000:431.004 - 0.022ms returns 0x00
T2CF4 000:431.016 JLINK_WriteReg(R1, 0x00000400)
T2CF4 000:431.026 - 0.015ms returns 0x00
T2CF4 000:431.038 JLINK_WriteReg(R2, 0x20000164)
T2CF4 000:431.048 - 0.014ms returns 0x00
T2CF4 000:431.060 JLINK_WriteReg(R3, 0x00000000)
T2CF4 000:431.070 - 0.014ms returns 0x00
T2CF4 000:431.082 JLINK_WriteReg(R4, 0x00000000)
T2CF4 000:431.091 - 0.014ms returns 0x00
T2CF4 000:431.103 JLINK_WriteReg(R5, 0x00000000)
T2CF4 000:431.113 - 0.014ms returns 0x00
T2CF4 000:431.124 JLINK_WriteReg(R6, 0x00000000)
T2CF4 000:431.134 - 0.014ms returns 0x00
T2CF4 000:431.145 JLINK_WriteReg(R7, 0x00000000)
T2CF4 000:431.155 - 0.014ms returns 0x00
T2CF4 000:431.167 JLINK_WriteReg(R8, 0x00000000)
T2CF4 000:431.178 - 0.014ms returns 0x00
T2CF4 000:431.189 JLINK_WriteReg(R9, 0x20000160)
T2CF4 000:431.200 - 0.015ms returns 0x00
T2CF4 000:431.211 JLINK_WriteReg(R10, 0x00000000)
T2CF4 000:431.221 - 0.014ms returns 0x00
T2CF4 000:431.238 JLINK_WriteReg(R11, 0x00000000)
T2CF4 000:431.250 - 0.017ms returns 0x00
T2CF4 000:431.262 JLINK_WriteReg(R12, 0x00000000)
T2CF4 000:431.272 - 0.014ms returns 0x00
T2CF4 000:431.284 JLINK_WriteReg(R13 (SP), 0x20001000)
T2CF4 000:431.295 - 0.015ms returns 0x00
T2CF4 000:431.307 JLINK_WriteReg(R14, 0x20000001)
T2CF4 000:431.317 - 0.014ms returns 0x00
T2CF4 000:431.328 JLINK_WriteReg(R15 (PC), 0x200000F4)
T2CF4 000:431.338 - 0.014ms returns 0x00
T2CF4 000:431.350 JLINK_WriteReg(XPSR, 0x01000000)
T2CF4 000:431.359 - 0.014ms returns 0x00
T2CF4 000:431.371 JLINK_WriteReg(MSP, 0x20001000)
T2CF4 000:431.381 - 0.014ms returns 0x00
T2CF4 000:431.394 JLINK_WriteReg(PSP, 0x20001000)
T2CF4 000:431.404 - 0.014ms returns 0x00
T2CF4 000:431.415 JLINK_WriteReg(CFBP, 0x00000000)
T2CF4 000:431.425 - 0.014ms returns 0x00
T2CF4 000:431.438   JLINK_SetBPEx(Addr = 0x20000000, Type = 0xFFFFFFF2)
T2CF4 000:431.452 - 0.020ms returns 0x00000008
T2CF4 000:431.465 JLINK_Go()
T2CF4 000:431.484   CPU_ReadMem(4 bytes @ 0xE0001000)
T2CF4 000:433.053 - 1.598ms
T2CF4 000:433.072 JLINK_IsHalted()
T2CF4 000:433.280 - 0.216ms returns FALSE
T2CF4 000:437.742 JLINK_IsHalted()
T2CF4 000:438.077 - 0.344ms returns FALSE
T2CF4 000:439.711 JLINK_IsHalted()
T2CF4 000:440.003 - 0.301ms returns FALSE
T2CF4 000:441.668 JLINK_IsHalted()
T2CF4 000:441.948 - 0.293ms returns FALSE
T2CF4 000:443.694 JLINK_IsHalted()
T2CF4 000:443.942 - 0.258ms returns FALSE
T2CF4 000:445.656 JLINK_IsHalted()
T2CF4 000:445.905 - 0.260ms returns FALSE
T2CF4 000:447.645 JLINK_IsHalted()
T2CF4 000:447.889 - 0.253ms returns FALSE
T2CF4 000:453.638 JLINK_IsHalted()
T2CF4 000:453.953 - 0.326ms returns FALSE
T2CF4 000:455.628 JLINK_IsHalted()
T2CF4 000:455.930 - 0.310ms returns FALSE
T2CF4 000:457.618 JLINK_IsHalted()
T2CF4 000:457.894 - 0.283ms returns FALSE
T2CF4 000:459.609 JLINK_IsHalted()
T2CF4 000:459.848 - 0.247ms returns FALSE
T2CF4 000:461.602 JLINK_IsHalted()
T2CF4 000:461.946 - 0.352ms returns FALSE
T2CF4 000:463.641 JLINK_IsHalted()
T2CF4 000:464.975   CPU_ReadMem(2 bytes @ 0x20000000)
T2CF4 000:465.249 - 1.615ms returns TRUE
T2CF4 000:465.265 JLINK_ReadReg(R15 (PC))
T2CF4 000:465.275 - 0.013ms returns 0x20000000
T2CF4 000:465.284 JLINK_ClrBPEx(BPHandle = 0x00000008)
T2CF4 000:465.291 - 0.010ms returns 0x00
T2CF4 000:465.299 JLINK_ReadReg(R0)
T2CF4 000:465.306 - 0.010ms returns 0x00000000
T2CF4 000:465.879 JLINK_WriteMem(0x20000164, 0x029C Bytes, ...)
T2CF4 000:465.892   Data:  69 46 01 AA 20 46 03 F0 4A FC 28 70 01 98 6F F0 ...
T2CF4 000:465.909   CPU_WriteMem(668 bytes @ 0x20000164)
T2CF4 000:467.608 - 1.738ms returns 0x29C
T2CF4 000:467.627 JLINK_WriteMem(0x20000400, 0x0164 Bytes, ...)
T2CF4 000:467.636   Data:  00 F0 0B B8 00 04 00 10 02 88 00 29 42 F4 80 73 ...
T2CF4 000:467.655   CPU_WriteMem(356 bytes @ 0x20000400)
T2CF4 000:468.838 - 1.220ms returns 0x164
T2CF4 000:468.860 JLINK_WriteReg(R0, 0x08001000)
T2CF4 000:468.870 - 0.014ms returns 0x00
T2CF4 000:468.879 JLINK_WriteReg(R1, 0x00000400)
T2CF4 000:468.886 - 0.010ms returns 0x00
T2CF4 000:468.894 JLINK_WriteReg(R2, 0x20000164)
T2CF4 000:468.901 - 0.010ms returns 0x00
T2CF4 000:468.910 JLINK_WriteReg(R3, 0x00000000)
T2CF4 000:468.917 - 0.010ms returns 0x00
T2CF4 000:468.925 JLINK_WriteReg(R4, 0x00000000)
T2CF4 000:468.932 - 0.010ms returns 0x00
T2CF4 000:468.940 JLINK_WriteReg(R5, 0x00000000)
T2CF4 000:468.947 - 0.010ms returns 0x00
T2CF4 000:468.956 JLINK_WriteReg(R6, 0x00000000)
T2CF4 000:468.963 - 0.010ms returns 0x00
T2CF4 000:468.971 JLINK_WriteReg(R7, 0x00000000)
T2CF4 000:468.978 - 0.010ms returns 0x00
T2CF4 000:468.986 JLINK_WriteReg(R8, 0x00000000)
T2CF4 000:468.993 - 0.010ms returns 0x00
T2CF4 000:469.001 JLINK_WriteReg(R9, 0x20000160)
T2CF4 000:469.008 - 0.010ms returns 0x00
T2CF4 000:469.016 JLINK_WriteReg(R10, 0x00000000)
T2CF4 000:469.023 - 0.010ms returns 0x00
T2CF4 000:469.032 JLINK_WriteReg(R11, 0x00000000)
T2CF4 000:469.039 - 0.010ms returns 0x00
T2CF4 000:469.047 JLINK_WriteReg(R12, 0x00000000)
T2CF4 000:469.057 - 0.014ms returns 0x00
T2CF4 000:469.067 JLINK_WriteReg(R13 (SP), 0x20001000)
T2CF4 000:469.075 - 0.011ms returns 0x00
T2CF4 000:469.083 JLINK_WriteReg(R14, 0x20000001)
T2CF4 000:469.090 - 0.010ms returns 0x00
T2CF4 000:469.098 JLINK_WriteReg(R15 (PC), 0x200000F4)
T2CF4 000:469.105 - 0.010ms returns 0x00
T2CF4 000:469.113 JLINK_WriteReg(XPSR, 0x01000000)
T2CF4 000:469.120 - 0.010ms returns 0x00
T2CF4 000:469.128 JLINK_WriteReg(MSP, 0x20001000)
T2CF4 000:469.135 - 0.010ms returns 0x00
T2CF4 000:469.143 JLINK_WriteReg(PSP, 0x20001000)
T2CF4 000:469.150 - 0.010ms returns 0x00
T2CF4 000:469.158 JLINK_WriteReg(CFBP, 0x00000000)
T2CF4 000:469.165 - 0.010ms returns 0x00
T2CF4 000:469.174   JLINK_SetBPEx(Addr = 0x20000000, Type = 0xFFFFFFF2)
T2CF4 000:469.185 - 0.014ms returns 0x00000009
T2CF4 000:469.193 JLINK_Go()
T2CF4 000:469.207   CPU_ReadMem(4 bytes @ 0xE0001000)
T2CF4 000:470.822 - 1.640ms
T2CF4 000:470.843 JLINK_IsHalted()
T2CF4 000:471.092 - 0.257ms returns FALSE
T2CF4 000:480.561 JLINK_IsHalted()
T2CF4 000:480.811 - 0.261ms returns FALSE
T2CF4 000:489.534 JLINK_IsHalted()
T2CF4 000:489.853 - 0.330ms returns FALSE
T2CF4 000:491.528 JLINK_IsHalted()
T2CF4 000:491.853 - 0.335ms returns FALSE
T2CF4 000:503.549 JLINK_IsHalted()
T2CF4 000:504.887   CPU_ReadMem(2 bytes @ 0x20000000)
T2CF4 000:505.154 - 1.613ms returns TRUE
T2CF4 000:505.170 JLINK_ReadReg(R15 (PC))
T2CF4 000:505.180 - 0.014ms returns 0x20000000
T2CF4 000:505.189 JLINK_ClrBPEx(BPHandle = 0x00000009)
T2CF4 000:505.196 - 0.010ms returns 0x00
T2CF4 000:505.205 JLINK_ReadReg(R0)
T2CF4 000:505.211 - 0.010ms returns 0x00000000
T2CF4 000:507.791 JLINK_WriteMem(0x20000164, 0x029C Bytes, ...)
T2CF4 000:507.809   Data:  09 20 92 E0 30 46 01 21 FF F7 4C FF 60 4D 4F F4 ...
T2CF4 000:507.830   CPU_WriteMem(668 bytes @ 0x20000164)
T2CF4 000:509.505 - 1.725ms returns 0x29C
T2CF4 000:509.525 JLINK_WriteMem(0x20000400, 0x0164 Bytes, ...)
T2CF4 000:509.532   Data:  6D FD 01 20 BD E8 FE 8F 46 4E A9 F1 01 00 00 27 ...
T2CF4 000:509.549   CPU_WriteMem(356 bytes @ 0x20000400)
T2CF4 000:510.648 - 1.133ms returns 0x164
T2CF4 000:510.673 JLINK_WriteReg(R0, 0x08001400)
T2CF4 000:510.686 - 0.018ms returns 0x00
T2CF4 000:510.697 JLINK_WriteReg(R1, 0x00000400)
T2CF4 000:510.707 - 0.013ms returns 0x00
T2CF4 000:510.721 JLINK_WriteReg(R2, 0x20000164)
T2CF4 000:510.732 - 0.015ms returns 0x00
T2CF4 000:510.744 JLINK_WriteReg(R3, 0x00000000)
T2CF4 000:510.755 - 0.015ms returns 0x00
T2CF4 000:510.767 JLINK_WriteReg(R4, 0x00000000)
T2CF4 000:510.778 - 0.017ms returns 0x00
T2CF4 000:510.792 JLINK_WriteReg(R5, 0x00000000)
T2CF4 000:510.801 - 0.011ms returns 0x00
T2CF4 000:510.809 JLINK_WriteReg(R6, 0x00000000)
T2CF4 000:510.816 - 0.010ms returns 0x00
T2CF4 000:510.824 JLINK_WriteReg(R7, 0x00000000)
T2CF4 000:510.831 - 0.009ms returns 0x00
T2CF4 000:510.838 JLINK_WriteReg(R8, 0x00000000)
T2CF4 000:510.846 - 0.010ms returns 0x00
T2CF4 000:510.853 JLINK_WriteReg(R9, 0x20000160)
T2CF4 000:510.860 - 0.009ms returns 0x00
T2CF4 000:510.868 JLINK_WriteReg(R10, 0x00000000)
T2CF4 000:510.875 - 0.009ms returns 0x00
T2CF4 000:510.883 JLINK_WriteReg(R11, 0x00000000)
T2CF4 000:510.890 - 0.009ms returns 0x00
T2CF4 000:510.898 JLINK_WriteReg(R12, 0x00000000)
T2CF4 000:510.904 - 0.009ms returns 0x00
T2CF4 000:510.912 JLINK_WriteReg(R13 (SP), 0x20001000)
T2CF4 000:510.921 - 0.011ms returns 0x00
T2CF4 000:510.929 JLINK_WriteReg(R14, 0x20000001)
T2CF4 000:510.935 - 0.009ms returns 0x00
T2CF4 000:510.944 JLINK_WriteReg(R15 (PC), 0x200000F4)
T2CF4 000:510.951 - 0.010ms returns 0x00
T2CF4 000:510.959 JLINK_WriteReg(XPSR, 0x01000000)
T2CF4 000:510.965 - 0.009ms returns 0x00
T2CF4 000:510.973 JLINK_WriteReg(MSP, 0x20001000)
T2CF4 000:510.980 - 0.009ms returns 0x00
T2CF4 000:510.988 JLINK_WriteReg(PSP, 0x20001000)
T2CF4 000:510.995 - 0.009ms returns 0x00
T2CF4 000:511.003 JLINK_WriteReg(CFBP, 0x00000000)
T2CF4 000:511.009 - 0.009ms returns 0x00
T2CF4 000:511.018   JLINK_SetBPEx(Addr = 0x20000000, Type = 0xFFFFFFF2)
T2CF4 000:511.033 - 0.018ms returns 0x0000000A
T2CF4 000:511.041 JLINK_Go()
T2CF4 000:511.057   CPU_ReadMem(4 bytes @ 0xE0001000)
T2CF4 000:512.490 - 1.462ms
T2CF4 000:512.515 JLINK_IsHalted()
T2CF4 000:512.777 - 0.271ms returns FALSE
T2CF4 000:522.460 JLINK_IsHalted()
T2CF4 000:522.728 - 0.282ms returns FALSE
T2CF4 000:536.410 JLINK_IsHalted()
T2CF4 000:536.688 - 0.289ms returns FALSE
T2CF4 000:540.425 JLINK_IsHalted()
T2CF4 000:540.665 - 0.253ms returns FALSE
T2CF4 000:542.431 JLINK_IsHalted()
T2CF4 000:542.697 - 0.274ms returns FALSE
T2CF4 000:544.391 JLINK_IsHalted()
T2CF4 000:545.711   CPU_ReadMem(2 bytes @ 0x20000000)
T2CF4 000:546.006 - 1.625ms returns TRUE
T2CF4 000:546.026 JLINK_ReadReg(R15 (PC))
T2CF4 000:546.036 - 0.013ms returns 0x20000000
T2CF4 000:546.045 JLINK_ClrBPEx(BPHandle = 0x0000000A)
T2CF4 000:546.052 - 0.010ms returns 0x00
T2CF4 000:546.061 JLINK_ReadReg(R0)
T2CF4 000:546.068 - 0.010ms returns 0x00000000
T2CF4 000:546.654 JLINK_WriteMem(0x20000164, 0x029C Bytes, ...)
T2CF4 000:546.670   Data:  37 F9 28 B3 28 46 31 46 22 46 FF F7 59 F9 08 B3 ...
T2CF4 000:546.689   CPU_WriteMem(668 bytes @ 0x20000164)
T2CF4 000:548.405 - 1.759ms returns 0x29C
T2CF4 000:548.421 JLINK_WriteMem(0x20000400, 0x0164 Bytes, ...)
T2CF4 000:548.428   Data:  D5 FE 07 F0 0F 00 0F 28 02 D1 40 46 05 F0 CE FE ...
T2CF4 000:548.443   CPU_WriteMem(356 bytes @ 0x20000400)
T2CF4 000:549.586 - 1.171ms returns 0x164
T2CF4 000:549.605 JLINK_WriteReg(R0, 0x08001800)
T2CF4 000:549.614 - 0.013ms returns 0x00
T2CF4 000:549.622 JLINK_WriteReg(R1, 0x00000400)
T2CF4 000:549.629 - 0.010ms returns 0x00
T2CF4 000:549.638 JLINK_WriteReg(R2, 0x20000164)
T2CF4 000:549.644 - 0.010ms returns 0x00
T2CF4 000:549.653 JLINK_WriteReg(R3, 0x00000000)
T2CF4 000:549.659 - 0.010ms returns 0x00
T2CF4 000:549.667 JLINK_WriteReg(R4, 0x00000000)
T2CF4 000:549.674 - 0.009ms returns 0x00
T2CF4 000:549.682 JLINK_WriteReg(R5, 0x00000000)
T2CF4 000:549.689 - 0.009ms returns 0x00
T2CF4 000:549.697 JLINK_WriteReg(R6, 0x00000000)
T2CF4 000:549.704 - 0.010ms returns 0x00
T2CF4 000:549.712 JLINK_WriteReg(R7, 0x00000000)
T2CF4 000:549.718 - 0.010ms returns 0x00
T2CF4 000:549.726 JLINK_WriteReg(R8, 0x00000000)
T2CF4 000:549.733 - 0.010ms returns 0x00
T2CF4 000:549.741 JLINK_WriteReg(R9, 0x20000160)
T2CF4 000:549.748 - 0.009ms returns 0x00
T2CF4 000:549.756 JLINK_WriteReg(R10, 0x00000000)
T2CF4 000:549.763 - 0.009ms returns 0x00
T2CF4 000:549.771 JLINK_WriteReg(R11, 0x00000000)
T2CF4 000:549.778 - 0.009ms returns 0x00
T2CF4 000:549.786 JLINK_WriteReg(R12, 0x00000000)
T2CF4 000:549.793 - 0.010ms returns 0x00
T2CF4 000:549.801 JLINK_WriteReg(R13 (SP), 0x20001000)
T2CF4 000:549.809 - 0.010ms returns 0x00
T2CF4 000:549.817 JLINK_WriteReg(R14, 0x20000001)
T2CF4 000:549.823 - 0.009ms returns 0x00
T2CF4 000:549.831 JLINK_WriteReg(R15 (PC), 0x200000F4)
T2CF4 000:549.838 - 0.010ms returns 0x00
T2CF4 000:549.846 JLINK_WriteReg(XPSR, 0x01000000)
T2CF4 000:549.853 - 0.009ms returns 0x00
T2CF4 000:549.861 JLINK_WriteReg(MSP, 0x20001000)
T2CF4 000:549.868 - 0.009ms returns 0x00
T2CF4 000:549.876 JLINK_WriteReg(PSP, 0x20001000)
T2CF4 000:549.883 - 0.009ms returns 0x00
T2CF4 000:549.891 JLINK_WriteReg(CFBP, 0x00000000)
T2CF4 000:549.897 - 0.009ms returns 0x00
T2CF4 000:549.906   JLINK_SetBPEx(Addr = 0x20000000, Type = 0xFFFFFFF2)
T2CF4 000:549.916 - 0.014ms returns 0x0000000B
T2CF4 000:549.925 JLINK_Go()
T2CF4 000:549.938   CPU_ReadMem(4 bytes @ 0xE0001000)
T2CF4 000:551.559 - 1.648ms
T2CF4 000:551.584 JLINK_IsHalted()
T2CF4 000:551.773 - 0.197ms returns FALSE
T2CF4 000:567.318 JLINK_IsHalted()
T2CF4 000:567.612 - 0.303ms returns FALSE
T2CF4 000:572.304 JLINK_IsHalted()
T2CF4 000:572.592 - 0.296ms returns FALSE
T2CF4 000:574.348 JLINK_IsHalted()
T2CF4 000:574.585 - 0.243ms returns FALSE
T2CF4 000:576.301 JLINK_IsHalted()
T2CF4 000:576.523 - 0.229ms returns FALSE
T2CF4 000:578.292 JLINK_IsHalted()
T2CF4 000:578.556 - 0.271ms returns FALSE
T2CF4 000:589.261 JLINK_IsHalted()
T2CF4 000:590.573   CPU_ReadMem(2 bytes @ 0x20000000)
T2CF4 000:590.874 - 1.621ms returns TRUE
T2CF4 000:590.892 JLINK_ReadReg(R15 (PC))
T2CF4 000:590.903 - 0.014ms returns 0x20000000
T2CF4 000:590.912 JLINK_ClrBPEx(BPHandle = 0x0000000B)
T2CF4 000:590.919 - 0.010ms returns 0x00
T2CF4 000:590.928 JLINK_ReadReg(R0)
T2CF4 000:590.935 - 0.010ms returns 0x00000000
T2CF4 000:591.448 JLINK_WriteMem(0x20000164, 0x029C Bytes, ...)
T2CF4 000:591.459   Data:  DF F8 18 AC 5F FA 89 F7 B8 45 98 BF BD E8 F0 87 ...
T2CF4 000:591.476   CPU_WriteMem(668 bytes @ 0x20000164)
T2CF4 000:593.292 - 1.852ms returns 0x29C
T2CF4 000:593.309 JLINK_WriteMem(0x20000400, 0x0164 Bytes, ...)
T2CF4 000:593.316   Data:  28 46 FF F7 95 F9 01 20 10 21 52 46 23 46 00 95 ...
T2CF4 000:593.332   CPU_WriteMem(356 bytes @ 0x20000400)
T2CF4 000:594.522 - 1.220ms returns 0x164
T2CF4 000:594.541 JLINK_WriteReg(R0, 0x08001C00)
T2CF4 000:594.550 - 0.013ms returns 0x00
T2CF4 000:594.559 JLINK_WriteReg(R1, 0x00000400)
T2CF4 000:594.566 - 0.010ms returns 0x00
T2CF4 000:594.574 JLINK_WriteReg(R2, 0x20000164)
T2CF4 000:594.581 - 0.010ms returns 0x00
T2CF4 000:594.589 JLINK_WriteReg(R3, 0x00000000)
T2CF4 000:594.596 - 0.010ms returns 0x00
T2CF4 000:594.604 JLINK_WriteReg(R4, 0x00000000)
T2CF4 000:594.611 - 0.010ms returns 0x00
T2CF4 000:594.619 JLINK_WriteReg(R5, 0x00000000)
T2CF4 000:594.626 - 0.010ms returns 0x00
T2CF4 000:594.634 JLINK_WriteReg(R6, 0x00000000)
T2CF4 000:594.641 - 0.010ms returns 0x00
T2CF4 000:594.649 JLINK_WriteReg(R7, 0x00000000)
T2CF4 000:594.656 - 0.010ms returns 0x00
T2CF4 000:594.664 JLINK_WriteReg(R8, 0x00000000)
T2CF4 000:594.671 - 0.010ms returns 0x00
T2CF4 000:594.679 JLINK_WriteReg(R9, 0x20000160)
T2CF4 000:594.685 - 0.023ms returns 0x00
T2CF4 000:594.708 JLINK_WriteReg(R10, 0x00000000)
T2CF4 000:594.715 - 0.010ms returns 0x00
T2CF4 000:594.723 JLINK_WriteReg(R11, 0x00000000)
